T38C0 000:012.008   SEGGER J-Link V7.20 Log File
T38C0 000:012.212   DLL Compiled: Apr 28 2021 17:34:08
T38C0 000:012.220   Logging started @ 2022-01-24 07:50
T38C0 000:012.226 - 12.229ms
T38C0 000:012.235 JLINK_SetWarnOutHandler(...)
T38C0 000:012.243 - 0.011ms
T38C0 000:012.251 JLINK_OpenEx(...)
T38C0 000:013.896   Firmware: J-Link ARM V8 compiled Nov 28 2014 13:44:46
T38C0 000:014.451   Firmware: J-Link ARM V8 compiled Nov 28 2014 13:44:46
T38C0 000:017.669   Hardware: V8.00
T38C0 000:017.689   S/N: 805251123
T38C0 000:017.699   OEM: SEGGER
T38C0 000:017.710   Feature(s): RDI,FlashDL,FlashBP,JFlash,GDB
T38C0 000:019.140   TELNET listener socket opened on port 19021
T38C0 000:019.319   WEBSRV Starting webserver
T38C0 000:019.508   WEBSRV Webserver running on local port 19080
T38C0 000:019.524 - 7.296ms returns "O.K."
T38C0 000:019.558 JLINK_GetEmuCaps()
T38C0 000:019.566 - 0.011ms returns 0xB9FF7BBF
T38C0 000:019.577 JLINK_TIF_GetAvailable(...)
T38C0 000:019.831 - 0.260ms
T38C0 000:019.845 JLINK_SetErrorOutHandler(...)
T38C0 000:019.852 - 0.011ms
T38C0 000:019.869 JLINK_ExecCommand("ProjectFile = "C:\Users\88691\GITHUB\ESS\Project\HVESS\MDK-ARM\JLinkSettings.ini"", ...). 
T38C0 000:029.435   Ref file found at: C:\Keil_v5\ARM\Segger\JLinkDevices.ref
T38C0 000:029.582   XML referenced by ref file: C:\Program Files (x86)\SEGGER\JLink\JLinkDevices.xml
T38C0 000:030.277   C:\Program Files (x86)\SEGGER\JLink\JLinkDevices.xml evaluated successfully.
T38C0 000:072.659   Device "STM32F407VG" selected.
T38C0 000:073.056 - 53.195ms returns 0x00
T38C0 000:073.084 JLINK_ExecCommand("Device = STM32L496ZGTx", ...). 
T38C0 000:073.459   Device "STM32F407VG" selected.
T38C0 000:073.791 - 0.705ms returns 0x00
T38C0 000:073.810 JLINK_GetHardwareVersion()
T38C0 000:073.817 - 0.010ms returns 80000
T38C0 000:073.827 JLINK_GetDLLVersion()
T38C0 000:073.835 - 0.012ms returns 72000
T38C0 000:073.844 JLINK_GetOEMString(...)
T38C0 000:073.852 JLINK_GetFirmwareString(...)
T38C0 000:073.902 - 0.053ms
T38C0 000:073.923 JLINK_GetDLLVersion()
T38C0 000:073.933 - 0.013ms returns 72000
T38C0 000:073.958 JLINK_GetCompileDateTime()
T38C0 000:073.987 - 0.032ms
T38C0 000:074.059 JLINK_GetFirmwareString(...)
T38C0 000:074.073 - 0.018ms
T38C0 000:074.088 JLINK_GetHardwareVersion()
T38C0 000:074.096 - 0.011ms returns 80000
T38C0 000:074.107 JLINK_GetSN()
T38C0 000:074.115 - 0.011ms returns 805251123
T38C0 000:074.126 JLINK_GetOEMString(...)
T38C0 000:074.140 JLINK_TIF_Select(JLINKARM_TIF_SWD)
T38C0 000:075.526 - 1.396ms returns 0x00
T38C0 000:075.543 JLINK_HasError()
T38C0 000:075.555 JLINK_SetSpeed(5000)
T38C0 000:075.766 - 0.220ms
T38C0 000:075.782 JLINK_GetId()
T38C0 000:076.122   InitTarget() start
T38C0 000:076.141    J-Link Script File: Executing InitTarget()
T38C0 000:090.978   WARNING: Unknown DEV_ID found: 0x00000461
T38C0 000:090.998   Security detection skipped.
T38C0 000:092.181   InitTarget() end
T38C0 000:092.848   Found SW-DP with ID 0x2BA01477
T38C0 000:097.434   Old FW that does not support reading DPIDR via DAP jobs
T38C0 000:102.033   DPv0 detected
T38C0 000:102.053   Scanning AP map to find all available APs
T38C0 000:105.749   AP[1]: Stopped AP scan as end of AP map has been reached
T38C0 000:105.801   AP[0]: AHB-AP (IDR: 0x24770011)
T38C0 000:105.817   Iterating through AP map to find AHB-AP to use
T38C0 000:110.873   AP[0]: Core found
T38C0 000:110.889   AP[0]: AHB-AP ROM base: 0xE00FF000
T38C0 000:113.347   CPUID register: 0x410FC241. Implementer code: 0x41 (ARM)
T38C0 000:113.366   Found Cortex-M4 r0p1, Little endian.
T38C0 000:215.370   -- Max. mem block: 0x00002408
T38C0 000:215.713   CPU_ReadMem(4 bytes @ 0xE000EDF0)
T38C0 000:216.277   CPU_ReadMem(4 bytes @ 0xE0002000)
T38C0 000:216.757   FPUnit: 6 code (BP) slots and 2 literal slots
T38C0 000:216.774   CPU_ReadMem(4 bytes @ 0xE000EDFC)
T38C0 000:217.246   CPU_WriteMem(4 bytes @ 0xE000EDFC)
T38C0 000:217.721   CPU_ReadMem(4 bytes @ 0xE0001000)
T38C0 000:218.219   CPU_WriteMem(4 bytes @ 0xE0001000)
T38C0 000:218.696   CPU_ReadMem(4 bytes @ 0xE000ED88)
T38C0 000:219.178   CPU_WriteMem(4 bytes @ 0xE000ED88)
T38C0 000:219.669   CPU_ReadMem(4 bytes @ 0xE000ED88)
T38C0 000:220.250   CPU_WriteMem(4 bytes @ 0xE000ED88)
T38C0 000:220.831   CoreSight components:
T38C0 000:220.851   ROMTbl[0] @ E00FF000
T38C0 000:220.862   CPU_ReadMem(64 bytes @ 0xE00FF000)
T38C0 000:221.742   CPU_ReadMem(32 bytes @ 0xE000EFE0)
T38C0 000:222.530   ROMTbl[0][0]: E000E000, CID: B105E00D, PID: 000BB00C SCS-M7
T38C0 000:222.548   CPU_ReadMem(32 bytes @ 0xE0001FE0)
T38C0 000:223.305   ROMTbl[0][1]: E0001000, CID: B105E00D, PID: 003BB002 DWT
T38C0 000:223.322   CPU_ReadMem(32 bytes @ 0xE0002FE0)
T38C0 000:224.077   ROMTbl[0][2]: E0002000, CID: B105E00D, PID: 002BB003 FPB
T38C0 000:224.094   CPU_ReadMem(32 bytes @ 0xE0000FE0)
T38C0 000:224.751   ROMTbl[0][3]: E0000000, CID: B105E00D, PID: 003BB001 ITM
T38C0 000:224.768   CPU_ReadMem(32 bytes @ 0xE0040FE0)
T38C0 000:225.616   ROMTbl[0][4]: E0040000, CID: B105900D, PID: 000BB9A1 TPIU
T38C0 000:225.636   CPU_ReadMem(32 bytes @ 0xE0041FE0)
T38C0 000:226.434   ROMTbl[0][5]: E0041000, CID: B105900D, PID: 000BB925 ETM
T38C0 000:227.186 - 151.413ms returns 0x2BA01477
T38C0 000:227.205 JLINK_GetDLLVersion()
T38C0 000:227.212 - 0.010ms returns 72000
T38C0 000:227.220 JLINK_CORE_GetFound()
T38C0 000:227.226 - 0.009ms returns 0xE0000FF
T38C0 000:227.299 JLINK_GetDebugInfo(0x100 = JLINKARM_ROM_TABLE_ADDR_INDEX)
T38C0 000:227.314   Value=0xE00FF000
T38C0 000:227.323 - 0.026ms returns 0
T38C0 000:227.338 JLINK_GetDebugInfo(0x100 = JLINKARM_ROM_TABLE_ADDR_INDEX)
T38C0 000:227.346   Value=0xE00FF000
T38C0 000:227.355 - 0.020ms returns 0
T38C0 000:227.363 JLINK_GetDebugInfo(0x101 = JLINKARM_DEBUG_INFO_ETM_ADDR_INDEX)
T38C0 000:227.369   Value=0xE0041000
T38C0 000:227.378 - 0.019ms returns 0
T38C0 000:227.386 JLINK_ReadMemEx(0xE0041FD0, 0x20 Bytes, Flags = 0x02000004)
T38C0 000:227.406   CPU_ReadMem(32 bytes @ 0xE0041FD0)
T38C0 000:228.112   Data:  04 00 00 00 00 00 00 00 00 00 00 00 00 00 00 00 ...
T38C0 000:228.128 - 0.744ms returns 32 (0x20)
T38C0 000:228.137 JLINK_GetDebugInfo(0x102 = JLINKARM_DEBUG_INFO_MTB_ADDR_INDEX)
T38C0 000:228.144   Value=0x00000000
T38C0 000:228.153 - 0.019ms returns 0
T38C0 000:228.160 JLINK_GetDebugInfo(0x103 = JLINKARM_DEBUG_INFO_TPIU_ADDR_INDEX)
T38C0 000:228.167   Value=0xE0040000
T38C0 000:228.176 - 0.019ms returns 0
T38C0 000:228.184 JLINK_GetDebugInfo(0x104 = JLINKARM_DEBUG_INFO_ITM_ADDR_INDEX)
T38C0 000:228.191   Value=0xE0000000
T38C0 000:228.200 - 0.019ms returns 0
T38C0 000:228.207 JLINK_GetDebugInfo(0x105 = JLINKARM_DEBUG_INFO_DWT_ADDR_INDEX)
T38C0 000:228.213   Value=0xE0001000
T38C0 000:228.223 - 0.018ms returns 0
T38C0 000:228.230 JLINK_GetDebugInfo(0x106 = JLINKARM_DEBUG_INFO_FPB_ADDR_INDEX)
T38C0 000:228.236   Value=0xE0002000
T38C0 000:228.246 - 0.019ms returns 0
T38C0 000:228.252 JLINK_GetDebugInfo(0x107 = JLINKARM_DEBUG_INFO_NVIC_ADDR_INDEX)
T38C0 000:228.259   Value=0xE000E000
T38C0 000:228.268 - 0.018ms returns 0
T38C0 000:228.275 JLINK_GetDebugInfo(0x10C = JLINKARM_DEBUG_INFO_DBG_ADDR_INDEX)
T38C0 000:228.282   Value=0xE000EDF0
T38C0 000:228.291 - 0.019ms returns 0
T38C0 000:228.298 JLINK_GetDebugInfo(0x01 = Unknown)
T38C0 000:228.305   Value=0x00000001
T38C0 000:228.314 - 0.019ms returns 0
T38C0 000:228.321 JLINK_ReadMemU32(0xE000ED00, 0x1 Items)
T38C0 000:228.332   CPU_ReadMem(4 bytes @ 0xE000ED00)
T38C0 000:228.856   Data:  41 C2 0F 41
T38C0 000:228.924   Debug reg: CPUID
T38C0 000:228.934 - 0.615ms returns 1 (0x1)
T38C0 000:228.941 JLINK_GetDebugInfo(0x10F = JLINKARM_DEBUG_INFO_HAS_CORTEX_M_SECURITY_EXT_INDEX)
T38C0 000:228.949   Value=0x00000000
T38C0 000:228.958 - 0.019ms returns 0
T38C0 000:228.965 JLINK_HasError()
T38C0 000:228.973 JLINK_SetResetType(JLINKARM_CM3_RESET_TYPE_NORMAL)
T38C0 000:228.980 - 0.010ms returns JLINKARM_CM3_RESET_TYPE_NORMAL
T38C0 000:228.987 JLINK_Reset()
T38C0 000:229.000   CPU is running
T38C0 000:229.011   CPU_WriteMem(4 bytes @ 0xE000EDF0)
T38C0 000:229.497   CPU is running
T38C0 000:229.516   CPU_WriteMem(4 bytes @ 0xE000EDFC)
T38C0 000:229.971   Reset: Halt core after reset via DEMCR.VC_CORERESET.
T38C0 000:230.534   Reset: Reset device via AIRCR.SYSRESETREQ.
T38C0 000:230.547   CPU is running
T38C0 000:230.556   CPU_WriteMem(4 bytes @ 0xE000ED0C)
T38C0 000:284.067   CPU_ReadMem(4 bytes @ 0xE000EDF0)
T38C0 000:284.796   CPU_ReadMem(4 bytes @ 0xE000EDF0)
T38C0 000:285.335   CPU is running
T38C0 000:285.352   CPU_WriteMem(4 bytes @ 0xE000EDF0)
T38C0 000:285.931   CPU is running
T38C0 000:285.948   CPU_WriteMem(4 bytes @ 0xE000EDFC)
T38C0 000:292.169   CPU_ReadMem(4 bytes @ 0xE000EDF0)
T38C0 000:295.103   CPU_WriteMem(4 bytes @ 0xE0002000)
T38C0 000:295.609   CPU_ReadMem(4 bytes @ 0xE000EDFC)
T38C0 000:296.099   CPU_ReadMem(4 bytes @ 0xE0001000)
T38C0 000:296.604 - 67.627ms
T38C0 000:296.625 JLINK_HasError()
T38C0 000:296.635 JLINK_ReadReg(R15 (PC))
T38C0 000:296.648 - 0.017ms returns 0x080001C4
T38C0 000:296.657 JLINK_ReadReg(XPSR)
T38C0 000:296.665 - 0.012ms returns 0x01000000
T38C0 000:296.675 JLINK_Halt()
T38C0 000:296.682 - 0.009ms returns 0x00
T38C0 000:296.690 JLINK_ReadMemU32(0xE000EDF0, 0x1 Items)
T38C0 000:296.701   CPU_ReadMem(4 bytes @ 0xE000EDF0)
T38C0 000:297.161   Data:  03 00 03 00
T38C0 000:297.178   Debug reg: DHCSR
T38C0 000:297.187 - 0.500ms returns 1 (0x1)
T38C0 000:297.198 JLINK_WriteU32_64(0xE000EDF0, 0xA05F0003)
T38C0 000:297.210   Debug reg: DHCSR
T38C0 000:297.400   CPU_WriteMem(4 bytes @ 0xE000EDF0)
T38C0 000:297.899 - 0.711ms returns 0 (0x00000000)
T38C0 000:297.917 JLINK_WriteU32_64(0xE000EDFC, 0x01000000)
T38C0 000:297.926   Debug reg: DEMCR
T38C0 000:297.939   CPU_WriteMem(4 bytes @ 0xE000EDFC)
T38C0 000:298.466 - 0.559ms returns 0 (0x00000000)
T38C0 000:298.513 JLINK_GetHWStatus(...)
T38C0 000:298.866 - 0.362ms returns 0
T38C0 000:298.895 JLINK_GetNumBPUnits(Type = 0xFFFFFF00)
T38C0 000:298.905 - 0.012ms returns 0x06
T38C0 000:298.912 JLINK_GetNumBPUnits(Type = 0xF0)
T38C0 000:298.919 - 0.010ms returns 0x2000
T38C0 000:298.926 JLINK_GetNumWPUnits()
T38C0 000:298.933 - 0.009ms returns 4
T38C0 000:298.948 JLINK_GetSpeed()
T38C0 000:298.955 - 0.011ms returns 4000
T38C0 000:298.967 JLINK_ReadMemU32(0xE000E004, 0x1 Items)
T38C0 000:298.979   CPU_ReadMem(4 bytes @ 0xE000E004)
T38C0 000:299.471   Data:  02 00 00 00
T38C0 000:299.488 - 0.524ms returns 1 (0x1)
T38C0 000:299.497 JLINK_ReadMemU32(0xE000E004, 0x1 Items)
T38C0 000:299.508   CPU_ReadMem(4 bytes @ 0xE000E004)
T38C0 000:299.947   Data:  02 00 00 00
T38C0 000:299.964 - 0.470ms returns 1 (0x1)
T38C0 000:299.973 JLINK_WriteMemEx(0xE0001000, 0x0000001C Bytes, Flags = 0x02000004)
T38C0 000:299.981   Data:  01 00 00 00 00 00 00 00 00 00 00 00 00 00 00 00 ...
T38C0 000:299.997   CPU_WriteMem(28 bytes @ 0xE0001000)
T38C0 000:300.758 - 0.795ms returns 0x1C
T38C0 000:300.775 JLINK_HasError()
T38C0 000:300.783 JLINK_ReadReg(R15 (PC))
T38C0 000:300.793 - 0.013ms returns 0x080001C4
T38C0 000:300.800 JLINK_ReadReg(XPSR)
T38C0 000:300.808 - 0.011ms returns 0x01000000
T38C0 000:306.814 JLINK_ReadMemEx(0xE0001004, 0x4 Bytes, Flags = 0x02000000)
T38C0 000:306.833   Data:  00 00 00 00
T38C0 000:306.842   Debug reg: DWT_CYCCNT
T38C0 000:306.852 - 0.041ms returns 4 (0x4)
T38C0 000:458.126 JLINK_HasError()
T38C0 000:458.159 JLINK_SetResetType(JLINKARM_CM3_RESET_TYPE_NORMAL)
T38C0 000:458.166 - 0.011ms returns JLINKARM_CM3_RESET_TYPE_NORMAL
T38C0 000:458.175 JLINK_Reset()
T38C0 000:458.191   CPU_WriteMem(4 bytes @ 0xE000EDF0)
T38C0 000:458.749   CPU_WriteMem(4 bytes @ 0xE000EDFC)
T38C0 000:459.358   Reset: Halt core after reset via DEMCR.VC_CORERESET.
T38C0 000:460.171   Reset: Reset device via AIRCR.SYSRESETREQ.
T38C0 000:460.190   CPU_WriteMem(4 bytes @ 0xE000ED0C)
T38C0 000:513.921   CPU_ReadMem(4 bytes @ 0xE000EDF0)
T38C0 000:514.581   CPU_ReadMem(4 bytes @ 0xE000EDF0)
T38C0 000:515.092   CPU_WriteMem(4 bytes @ 0xE000EDF0)
T38C0 000:515.596   CPU_WriteMem(4 bytes @ 0xE000EDFC)
T38C0 000:522.119   CPU_ReadMem(4 bytes @ 0xE000EDF0)
T38C0 000:525.062   CPU_WriteMem(4 bytes @ 0xE0002000)
T38C0 000:525.650   CPU_ReadMem(4 bytes @ 0xE000EDFC)
T38C0 000:526.137   CPU_ReadMem(4 bytes @ 0xE0001000)
T38C0 000:526.605 - 68.439ms
T38C0 000:526.673 JLINK_HasError()
T38C0 000:526.682 JLINK_ReadReg(R15 (PC))
T38C0 000:526.692 - 0.013ms returns 0x080001C4
T38C0 000:526.700 JLINK_ReadReg(XPSR)
T38C0 000:526.707 - 0.011ms returns 0x01000000
T38C0 002:712.141 JLINK_ReadMemEx(0x080001C4, 0x3C Bytes, Flags = 0x02000000)
T38C0 002:712.174   CPU_ReadMem(64 bytes @ 0x080001C0)
T38C0 002:713.145    -- Updating C cache (64 bytes @ 0x080001C0)
T38C0 002:713.193    -- Read from C cache (60 bytes @ 0x080001C4)
T38C0 002:713.204   Data:  06 48 80 47 06 48 00 47 FE E7 FE E7 FE E7 FE E7 ...
T38C0 002:713.232 - 1.094ms returns 60 (0x3C)
T38C0 002:713.241 JLINK_ReadMemEx(0x080001C4, 0x2 Bytes, Flags = 0x02000000)
T38C0 002:713.250    -- Read from C cache (2 bytes @ 0x080001C4)
T38C0 002:713.260   Data:  06 48
T38C0 002:713.269 - 0.030ms returns 2 (0x2)
T38C0 002:713.317 JLINK_ReadMemEx(0x080001C6, 0x2 Bytes, Flags = 0x02000000)
T38C0 002:713.326    -- Read from C cache (2 bytes @ 0x080001C6)
T38C0 002:713.336   Data:  80 47
T38C0 002:713.345 - 0.030ms returns 2 (0x2)
T38C0 003:722.871 JLINK_ReadMemEx(0x080001C6, 0x2 Bytes, Flags = 0x02000000)
T38C0 003:722.905    -- Read from C cache (2 bytes @ 0x080001C6)
T38C0 003:722.915   Data:  80 47
T38C0 003:722.925 - 0.057ms returns 2 (0x2)
T38C0 003:722.934 JLINK_ReadMemEx(0x080001C8, 0x3C Bytes, Flags = 0x02000000)
T38C0 003:722.945   CPU_ReadMem(64 bytes @ 0x08000200)
T38C0 003:723.975    -- Updating C cache (64 bytes @ 0x08000200)
T38C0 003:724.053    -- Read from C cache (60 bytes @ 0x080001C8)
T38C0 003:724.063   Data:  06 48 00 47 FE E7 FE E7 FE E7 FE E7 FE E7 FE E7 ...
T38C0 003:724.073 - 1.142ms returns 60 (0x3C)
T38C0 003:724.081 JLINK_ReadMemEx(0x080001C8, 0x2 Bytes, Flags = 0x02000000)
T38C0 003:724.089    -- Read from C cache (2 bytes @ 0x080001C8)
T38C0 003:724.099   Data:  06 48
T38C0 003:724.108 - 0.030ms returns 2 (0x2)
T38C0 003:920.768 JLINK_HasError()
T38C0 003:920.787 JLINK_ReadReg(R0)
T38C0 003:921.340 - 0.570ms returns 0x00000000
T38C0 003:921.365 JLINK_ReadReg(R1)
T38C0 003:921.374 - 0.011ms returns 0x00000000
T38C0 003:921.382 JLINK_ReadReg(R2)
T38C0 003:921.388 - 0.009ms returns 0x00000000
T38C0 003:921.396 JLINK_ReadReg(R3)
T38C0 003:921.403 - 0.010ms returns 0x00000000
T38C0 003:921.411 JLINK_ReadReg(R4)
T38C0 003:921.418 - 0.010ms returns 0x00000000
T38C0 003:921.426 JLINK_ReadReg(R5)
T38C0 003:921.432 - 0.010ms returns 0x00000000
T38C0 003:921.440 JLINK_ReadReg(R6)
T38C0 003:921.447 - 0.009ms returns 0x00000000
T38C0 003:921.455 JLINK_ReadReg(R7)
T38C0 003:921.462 - 0.010ms returns 0x00000000
T38C0 003:921.469 JLINK_ReadReg(R8)
T38C0 003:921.482 - 0.016ms returns 0x00000000
T38C0 003:921.490 JLINK_ReadReg(R9)
T38C0 003:921.497 - 0.010ms returns 0x00000000
T38C0 003:921.506 JLINK_ReadReg(R10)
T38C0 003:921.513 - 0.010ms returns 0x00000000
T38C0 003:921.521 JLINK_ReadReg(R11)
T38C0 003:921.528 - 0.010ms returns 0x00000000
T38C0 003:921.535 JLINK_ReadReg(R12)
T38C0 003:921.543 - 0.011ms returns 0x00000000
T38C0 003:921.550 JLINK_ReadReg(R13 (SP))
T38C0 003:921.558 - 0.010ms returns 0x20011150
T38C0 003:921.565 JLINK_ReadReg(R14)
T38C0 003:921.571 - 0.010ms returns 0xFFFFFFFF
T38C0 003:921.580 JLINK_ReadReg(R15 (PC))
T38C0 003:921.588 - 0.010ms returns 0x080001C4
T38C0 003:921.595 JLINK_ReadReg(XPSR)
T38C0 003:921.603 - 0.011ms returns 0x01000000
T38C0 003:921.611 JLINK_ReadReg(MSP)
T38C0 003:921.618 - 0.010ms returns 0x20011150
T38C0 003:921.625 JLINK_ReadReg(PSP)
T38C0 003:921.632 - 0.010ms returns 0x00000000
T38C0 003:921.640 JLINK_ReadReg(CFBP)
T38C0 003:921.647 - 0.010ms returns 0x00000000
T38C0 003:921.654 JLINK_ReadReg(FPSCR)
T38C0 003:925.516 - 3.873ms returns 0x00000000
T38C0 003:925.535 JLINK_ReadReg(FPS0)
T38C0 003:925.561 - 0.030ms returns 0x00000000
T38C0 003:925.569 JLINK_ReadReg(FPS1)
T38C0 003:925.577 - 0.011ms returns 0x00000000
T38C0 003:925.616 JLINK_ReadReg(FPS2)
T38C0 003:925.626 - 0.013ms returns 0x00000000
T38C0 003:925.635 JLINK_ReadReg(FPS3)
T38C0 003:925.642 - 0.010ms returns 0x00000000
T38C0 003:925.649 JLINK_ReadReg(FPS4)
T38C0 003:925.656 - 0.011ms returns 0x00000000
T38C0 003:925.664 JLINK_ReadReg(FPS5)
T38C0 003:925.672 - 0.010ms returns 0x00000000
T38C0 003:925.679 JLINK_ReadReg(FPS6)
T38C0 003:925.685 - 0.010ms returns 0x00000000
T38C0 003:925.694 JLINK_ReadReg(FPS7)
T38C0 003:925.701 - 0.010ms returns 0x00000000
T38C0 003:925.708 JLINK_ReadReg(FPS8)
T38C0 003:925.715 - 0.011ms returns 0x00000000
T38C0 003:925.723 JLINK_ReadReg(FPS9)
T38C0 003:925.730 - 0.010ms returns 0x00000000
T38C0 003:925.737 JLINK_ReadReg(FPS10)
T38C0 003:925.744 - 0.010ms returns 0x00000000
T38C0 003:925.752 JLINK_ReadReg(FPS11)
T38C0 003:925.758 - 0.009ms returns 0x00000000
T38C0 003:925.765 JLINK_ReadReg(FPS12)
T38C0 003:925.773 - 0.011ms returns 0x00000000
T38C0 003:925.781 JLINK_ReadReg(FPS13)
T38C0 003:925.788 - 0.010ms returns 0x00000000
T38C0 003:925.795 JLINK_ReadReg(FPS14)
T38C0 003:925.801 - 0.010ms returns 0x00000000
T38C0 003:925.809 JLINK_ReadReg(FPS15)
T38C0 003:925.816 - 0.010ms returns 0x00000000
T38C0 003:925.823 JLINK_ReadReg(FPS16)
T38C0 003:925.831 - 0.011ms returns 0x00000000
T38C0 003:925.839 JLINK_ReadReg(FPS17)
T38C0 003:925.846 - 0.010ms returns 0x00000000
T38C0 003:925.853 JLINK_ReadReg(FPS18)
T38C0 003:925.859 - 0.010ms returns 0x00000000
T38C0 003:925.867 JLINK_ReadReg(FPS19)
T38C0 003:925.875 - 0.010ms returns 0x00000000
T38C0 003:925.882 JLINK_ReadReg(FPS20)
T38C0 003:925.889 - 0.011ms returns 0x00000000
T38C0 003:925.897 JLINK_ReadReg(FPS21)
T38C0 003:925.904 - 0.010ms returns 0x00000000
T38C0 003:925.911 JLINK_ReadReg(FPS22)
T38C0 003:925.918 - 0.010ms returns 0x00000000
T38C0 003:925.926 JLINK_ReadReg(FPS23)
T38C0 003:925.933 - 0.010ms returns 0x00000000
T38C0 003:925.940 JLINK_ReadReg(FPS24)
T38C0 003:925.948 - 0.011ms returns 0x00000000
T38C0 003:925.955 JLINK_ReadReg(FPS25)
T38C0 003:925.962 - 0.010ms returns 0x00000000
T38C0 003:925.970 JLINK_ReadReg(FPS26)
T38C0 003:925.976 - 0.010ms returns 0x00000000
T38C0 003:925.984 JLINK_ReadReg(FPS27)
T38C0 003:925.991 - 0.010ms returns 0x00000000
T38C0 003:925.999 JLINK_ReadReg(FPS28)
T38C0 003:926.006 - 0.010ms returns 0x00000000
T38C0 003:926.013 JLINK_ReadReg(FPS29)
T38C0 003:926.021 - 0.010ms returns 0x00000000
T38C0 003:926.028 JLINK_ReadReg(FPS30)
T38C0 003:926.034 - 0.010ms returns 0x00000000
T38C0 003:926.042 JLINK_ReadReg(FPS31)
T38C0 003:926.050 - 0.010ms returns 0x00000000
T38C0 003:969.636 JLINK_ReadMemEx(0x2000AA14, 0x20 Bytes, Flags = 0x02000000)
T38C0 003:969.715   CPU_ReadMem(64 bytes @ 0x2000AA00)
T38C0 003:970.666    -- Updating C cache (64 bytes @ 0x2000AA00)
T38C0 003:970.685    -- Read from C cache (32 bytes @ 0x2000AA14)
T38C0 003:970.695   Data:  00 00 00 00 00 00 00 00 00 00 00 00 00 00 00 00 ...
T38C0 003:970.704 - 1.071ms returns 32 (0x20)
T38C0 003:976.760 JLINK_ReadMemEx(0x20000322, 0x2 Bytes, Flags = 0x02000000)
T38C0 003:976.815   CPU_ReadMem(64 bytes @ 0x20000300)
T38C0 003:977.902    -- Updating C cache (64 bytes @ 0x20000300)
T38C0 003:977.981    -- Read from C cache (2 bytes @ 0x20000322)
T38C0 003:977.991   Data:  00 00
T38C0 003:978.001 - 1.244ms returns 2 (0x2)
T38C0 003:978.490 JLINK_ReadMemEx(0x20000322, 0x2 Bytes, Flags = 0x02000000)
T38C0 003:978.502    -- Read from C cache (2 bytes @ 0x20000322)
T38C0 003:978.512   Data:  00 00
T38C0 003:978.522 - 0.035ms returns 2 (0x2)
T38C0 003:978.547 JLINK_ReadMemEx(0x20000322, 0x2 Bytes, Flags = 0x02000000)
T38C0 003:978.556    -- Read from C cache (2 bytes @ 0x20000322)
T38C0 003:978.566   Data:  00 00
T38C0 003:978.574 - 0.031ms returns 2 (0x2)
T38C0 004:001.919 JLINK_ReadMemEx(0x20000028, 0x1 Bytes, Flags = 0x02000000)
T38C0 004:001.956   CPU_ReadMem(64 bytes @ 0x20000000)
T38C0 004:003.085    -- Updating C cache (64 bytes @ 0x20000000)
T38C0 004:003.106    -- Read from C cache (1 bytes @ 0x20000028)
T38C0 004:003.118   Data:  00
T38C0 004:003.153 - 1.238ms returns 1 (0x1)
T38C0 004:003.630 JLINK_ReadMemEx(0x20000028, 0x1 Bytes, Flags = 0x02000000)
T38C0 004:003.643    -- Read from C cache (1 bytes @ 0x20000028)
T38C0 004:003.653   Data:  00
T38C0 004:003.663 - 0.036ms returns 1 (0x1)
T38C0 004:003.688 JLINK_ReadMemEx(0x20000028, 0x1 Bytes, Flags = 0x02000000)
T38C0 004:003.698    -- Read from C cache (1 bytes @ 0x20000028)
T38C0 004:003.708   Data:  00
T38C0 004:003.717 - 0.032ms returns 1 (0x1)
T38C0 004:010.665 JLINK_ReadMemEx(0x20000024, 0x1 Bytes, Flags = 0x02000000)
T38C0 004:010.691    -- Read from C cache (1 bytes @ 0x20000024)
T38C0 004:010.701   Data:  00
T38C0 004:010.711 - 0.049ms returns 1 (0x1)
T38C0 004:011.598 JLINK_ReadMemEx(0x20000024, 0x1 Bytes, Flags = 0x02000000)
T38C0 004:011.668    -- Read from C cache (1 bytes @ 0x20000024)
T38C0 004:011.680   Data:  00
T38C0 004:011.691 - 0.096ms returns 1 (0x1)
T38C0 004:011.766 JLINK_ReadMemEx(0x20000024, 0x1 Bytes, Flags = 0x02000000)
T38C0 004:011.779    -- Read from C cache (1 bytes @ 0x20000024)
T38C0 004:011.789   Data:  00
T38C0 004:011.802 - 0.040ms returns 1 (0x1)
T38C0 004:017.828 JLINK_ReadMemEx(0x20000025, 0x1 Bytes, Flags = 0x02000000)
T38C0 004:017.849    -- Read from C cache (1 bytes @ 0x20000025)
T38C0 004:017.859   Data:  00
T38C0 004:017.869 - 0.044ms returns 1 (0x1)
T38C0 004:018.416 JLINK_ReadMemEx(0x20000025, 0x1 Bytes, Flags = 0x02000000)
T38C0 004:018.435    -- Read from C cache (1 bytes @ 0x20000025)
T38C0 004:018.445   Data:  00
T38C0 004:018.454 - 0.042ms returns 1 (0x1)
T38C0 004:018.481 JLINK_ReadMemEx(0x20000025, 0x1 Bytes, Flags = 0x02000000)
T38C0 004:018.491    -- Read from C cache (1 bytes @ 0x20000025)
T38C0 004:018.501   Data:  00
T38C0 004:018.511 - 0.033ms returns 1 (0x1)
T38C0 004:024.054 JLINK_ReadMemEx(0x20000035, 0x1 Bytes, Flags = 0x02000000)
T38C0 004:024.074    -- Read from C cache (1 bytes @ 0x20000035)
T38C0 004:024.084   Data:  00
T38C0 004:024.093 - 0.042ms returns 1 (0x1)
T38C0 004:024.578 JLINK_ReadMemEx(0x20000035, 0x1 Bytes, Flags = 0x02000000)
T38C0 004:024.588    -- Read from C cache (1 bytes @ 0x20000035)
T38C0 004:024.598   Data:  00
T38C0 004:024.608 - 0.032ms returns 1 (0x1)
T38C0 004:024.630 JLINK_ReadMemEx(0x20000035, 0x1 Bytes, Flags = 0x02000000)
T38C0 004:024.640    -- Read from C cache (1 bytes @ 0x20000035)
T38C0 004:024.650   Data:  00
T38C0 004:024.659 - 0.032ms returns 1 (0x1)
T38C0 004:031.651 JLINK_ReadMemEx(0x2000A614, 0x20 Bytes, Flags = 0x02000000)
T38C0 004:031.679   CPU_ReadMem(64 bytes @ 0x2000A600)
T38C0 004:032.606    -- Updating C cache (64 bytes @ 0x2000A600)
T38C0 004:032.625    -- Read from C cache (32 bytes @ 0x2000A614)
T38C0 004:032.635   Data:  00 00 00 00 00 00 00 00 00 00 00 00 00 00 00 00 ...
T38C0 004:032.644 - 0.996ms returns 32 (0x20)
T38C0 004:053.795 JLINK_ReadMemEx(0x2000C050, 0x20 Bytes, Flags = 0x02000000)
T38C0 004:053.836   CPU_ReadMem(64 bytes @ 0x2000C040)
T38C0 004:054.939    -- Updating C cache (64 bytes @ 0x2000C040)
T38C0 004:054.963    -- Read from C cache (32 bytes @ 0x2000C050)
T38C0 004:054.975   Data:  00 00 00 00 00 00 00 00 00 00 00 00 00 00 00 00 ...
T38C0 004:054.986 - 1.195ms returns 32 (0x20)
T38C0 004:072.314 JLINK_ReadMemEx(0x2000C1F4, 0x20 Bytes, Flags = 0x02000000)
T38C0 004:072.348   CPU_ReadMem(128 bytes @ 0x2000C1C0)
T38C0 004:073.841    -- Updating C cache (128 bytes @ 0x2000C1C0)
T38C0 004:073.863    -- Read from C cache (32 bytes @ 0x2000C1F4)
T38C0 004:073.874   Data:  00 00 00 00 00 00 00 00 00 00 00 00 00 00 00 00 ...
T38C0 004:073.885 - 1.575ms returns 32 (0x20)
T38C0 004:101.413 JLINK_ReadMemEx(0x20000028, 0x1 Bytes, Flags = 0x02000000)
T38C0 004:101.471    -- Read from C cache (1 bytes @ 0x20000028)
T38C0 004:101.482   Data:  00
T38C0 004:101.492 - 0.082ms returns 1 (0x1)
T38C0 004:101.510 JLINK_ReadMemEx(0x20000028, 0x1 Bytes, Flags = 0x02000000)
T38C0 004:101.522    -- Read from C cache (1 bytes @ 0x20000028)
T38C0 004:101.533   Data:  00
T38C0 004:101.541 - 0.034ms returns 1 (0x1)
T38C0 004:101.570 JLINK_ReadMemEx(0x20000028, 0x1 Bytes, Flags = 0x02000000)
T38C0 004:101.583    -- Read from C cache (1 bytes @ 0x20000028)
T38C0 004:101.593   Data:  00
T38C0 004:101.603 - 0.036ms returns 1 (0x1)
T38C0 004:109.492 JLINK_ReadMemEx(0x20000024, 0x1 Bytes, Flags = 0x02000000)
T38C0 004:109.518    -- Read from C cache (1 bytes @ 0x20000024)
T38C0 004:109.528   Data:  00
T38C0 004:109.537 - 0.049ms returns 1 (0x1)
T38C0 004:109.555 JLINK_ReadMemEx(0x20000024, 0x1 Bytes, Flags = 0x02000000)
T38C0 004:109.565    -- Read from C cache (1 bytes @ 0x20000024)
T38C0 004:109.574   Data:  00
T38C0 004:109.584 - 0.032ms returns 1 (0x1)
T38C0 004:109.607 JLINK_ReadMemEx(0x20000024, 0x1 Bytes, Flags = 0x02000000)
T38C0 004:109.617    -- Read from C cache (1 bytes @ 0x20000024)
T38C0 004:109.627   Data:  00
T38C0 004:109.635 - 0.031ms returns 1 (0x1)
T38C0 004:116.910 JLINK_ReadMemEx(0x20000024, 0x1 Bytes, Flags = 0x02000000)
T38C0 004:116.934    -- Read from C cache (1 bytes @ 0x20000024)
T38C0 004:116.944   Data:  00
T38C0 004:116.953 - 0.046ms returns 1 (0x1)
T38C0 004:116.971 JLINK_ReadMemEx(0x20000024, 0x1 Bytes, Flags = 0x02000000)
T38C0 004:116.981    -- Read from C cache (1 bytes @ 0x20000024)
T38C0 004:116.990   Data:  00
T38C0 004:117.000 - 0.032ms returns 1 (0x1)
T38C0 004:117.023 JLINK_ReadMemEx(0x20000024, 0x1 Bytes, Flags = 0x02000000)
T38C0 004:117.033    -- Read from C cache (1 bytes @ 0x20000024)
T38C0 004:117.042   Data:  00
T38C0 004:117.051 - 0.032ms returns 1 (0x1)
T38C0 004:124.404 JLINK_ReadMemEx(0x20000025, 0x1 Bytes, Flags = 0x02000000)
T38C0 004:124.425    -- Read from C cache (1 bytes @ 0x20000025)
T38C0 004:124.435   Data:  00
T38C0 004:124.445 - 0.044ms returns 1 (0x1)
T38C0 004:124.462 JLINK_ReadMemEx(0x20000025, 0x1 Bytes, Flags = 0x02000000)
T38C0 004:124.472    -- Read from C cache (1 bytes @ 0x20000025)
T38C0 004:124.483   Data:  00
T38C0 004:124.491 - 0.032ms returns 1 (0x1)
T38C0 004:124.514 JLINK_ReadMemEx(0x20000025, 0x1 Bytes, Flags = 0x02000000)
T38C0 004:124.524    -- Read from C cache (1 bytes @ 0x20000025)
T38C0 004:124.534   Data:  00
T38C0 004:124.544 - 0.033ms returns 1 (0x1)
T38C0 004:132.028 JLINK_ReadMemEx(0x20000028, 0x1 Bytes, Flags = 0x02000000)
T38C0 004:132.050    -- Read from C cache (1 bytes @ 0x20000028)
T38C0 004:132.060   Data:  00
T38C0 004:132.070 - 0.045ms returns 1 (0x1)
T38C0 004:132.087 JLINK_ReadMemEx(0x20000028, 0x1 Bytes, Flags = 0x02000000)
T38C0 004:132.096    -- Read from C cache (1 bytes @ 0x20000028)
T38C0 004:132.106   Data:  00
T38C0 004:132.115 - 0.031ms returns 1 (0x1)
T38C0 004:132.138 JLINK_ReadMemEx(0x20000028, 0x1 Bytes, Flags = 0x02000000)
T38C0 004:132.148    -- Read from C cache (1 bytes @ 0x20000028)
T38C0 004:132.157   Data:  00
T38C0 004:132.167 - 0.033ms returns 1 (0x1)
T8AF4 004:176.713 JLINK_ReadMemEx(0x080001C4, 0x2 Bytes, Flags = 0x02000000)
T8AF4 004:176.750    -- Read from C cache (2 bytes @ 0x080001C4)
T8AF4 004:176.761   Data:  06 48
T8AF4 004:176.770 - 0.060ms returns 2 (0x2)
T8AF4 004:176.778 JLINK_HasError()
T8AF4 004:176.788 JLINK_SetBPEx(Addr = 0x08014FFC, Type = 0xFFFFFFF2)
T8AF4 004:176.799 - 0.014ms returns 0x00000001
T8AF4 004:176.807 JLINK_HasError()
T8AF4 004:176.814 JLINK_SetBPEx(Addr = 0x08015124, Type = 0xFFFFFFF2)
T8AF4 004:176.822 - 0.011ms returns 0x00000002
T8AF4 004:176.829 JLINK_HasError()
T8AF4 004:176.836 JLINK_SetBPEx(Addr = 0x08015102, Type = 0xFFFFFFF2)
T8AF4 004:176.844 - 0.011ms returns 0x00000003
T8AF4 004:176.852 JLINK_HasError()
T8AF4 004:176.859 JLINK_SetBPEx(Addr = 0x080150D8, Type = 0xFFFFFFF2)
T8AF4 004:176.867 - 0.010ms returns 0x00000004
T8AF4 004:176.874 JLINK_HasError()
T8AF4 004:176.882 JLINK_HasError()
T8AF4 004:176.890 JLINK_Go()
T8AF4 004:176.918   CPU_WriteMem(4 bytes @ 0xE0002000)
T8AF4 004:177.455   CPU_WriteMem(4 bytes @ 0xE0002000)
T8AF4 004:178.032   CPU_WriteMem(4 bytes @ 0xE0002000)
T8AF4 004:178.582   CPU_WriteMem(4 bytes @ 0xE0002000)
T8AF4 004:179.195   CPU_ReadMem(4 bytes @ 0xE0001000)
T8AF4 004:179.631   CPU_WriteMem(4 bytes @ 0xE0002008)
T8AF4 004:179.646   CPU_WriteMem(4 bytes @ 0xE000200C)
T8AF4 004:179.656   CPU_WriteMem(4 bytes @ 0xE0002010)
T8AF4 004:179.667   CPU_WriteMem(4 bytes @ 0xE0002014)
T8AF4 004:179.676   CPU_WriteMem(4 bytes @ 0xE0002018)
T8AF4 004:179.686   CPU_WriteMem(4 bytes @ 0xE000201C)
T8AF4 004:181.747   CPU_WriteMem(4 bytes @ 0xE0001004)
T8AF4 004:182.696 - 5.816ms
T8AF4 004:283.337 JLINK_HasError()
T8AF4 004:283.361 JLINK_IsHalted()
T8AF4 004:286.120 - 2.769ms returns TRUE
T8AF4 004:286.136 JLINK_HasError()
T8AF4 004:286.144 JLINK_Halt()
T8AF4 004:286.151 - 0.010ms returns 0x00
T8AF4 004:286.158 JLINK_IsHalted()
T8AF4 004:286.165 - 0.010ms returns TRUE
T8AF4 004:286.173 JLINK_IsHalted()
T8AF4 004:286.179 - 0.011ms returns TRUE
T8AF4 004:286.189 JLINK_IsHalted()
T8AF4 004:286.195 - 0.009ms returns TRUE
T8AF4 004:286.203 JLINK_HasError()
T8AF4 004:286.211 JLINK_ReadReg(R15 (PC))
T8AF4 004:286.253 - 0.046ms returns 0x08014FFC
T8AF4 004:286.262 JLINK_ReadReg(XPSR)
T8AF4 004:286.269 - 0.010ms returns 0x61000000
T8AF4 004:286.278 JLINK_HasError()
T8AF4 004:286.304 JLINK_ClrBPEx(BPHandle = 0x00000001)
T8AF4 004:286.312 - 0.011ms returns 0x00
T8AF4 004:286.320 JLINK_HasError()
T8AF4 004:286.326 JLINK_ClrBPEx(BPHandle = 0x00000002)
T8AF4 004:286.334 - 0.011ms returns 0x00
T8AF4 004:286.342 JLINK_HasError()
T8AF4 004:286.348 JLINK_ClrBPEx(BPHandle = 0x00000003)
T8AF4 004:286.356 - 0.011ms returns 0x00
T8AF4 004:286.363 JLINK_HasError()
T8AF4 004:286.371 JLINK_ClrBPEx(BPHandle = 0x00000004)
T8AF4 004:286.377 - 0.009ms returns 0x00
T8AF4 004:286.384 JLINK_HasError()
T8AF4 004:286.392 JLINK_HasError()
T8AF4 004:286.399 JLINK_ReadMemU32(0xE000ED30, 0x1 Items)
T8AF4 004:286.411   CPU_ReadMem(4 bytes @ 0xE000ED30)
T8AF4 004:286.920   Data:  03 00 00 00
T8AF4 004:286.936 - 0.540ms returns 1 (0x1)
T8AF4 004:286.946 JLINK_ReadMemU32(0xE0001028, 0x1 Items)
T8AF4 004:286.956   CPU_ReadMem(4 bytes @ 0xE0001028)
T8AF4 004:287.526   Data:  00 00 00 00
T8AF4 004:287.548   Debug reg: DWT_FUNC[0]
T8AF4 004:287.557 - 0.614ms returns 1 (0x1)
T8AF4 004:287.566 JLINK_ReadMemU32(0xE0001038, 0x1 Items)
T8AF4 004:287.577   CPU_ReadMem(4 bytes @ 0xE0001038)
T8AF4 004:287.988   Data:  00 02 00 00
T8AF4 004:288.006   Debug reg: DWT_FUNC[1]
T8AF4 004:288.014 - 0.451ms returns 1 (0x1)
T8AF4 004:288.023 JLINK_ReadMemU32(0xE0001048, 0x1 Items)
T8AF4 004:288.034   CPU_ReadMem(4 bytes @ 0xE0001048)
T8AF4 004:288.490   Data:  00 00 00 00
T8AF4 004:288.507   Debug reg: DWT_FUNC[2]
T8AF4 004:288.515 - 0.495ms returns 1 (0x1)
T8AF4 004:288.524 JLINK_ReadMemU32(0xE0001058, 0x1 Items)
T8AF4 004:288.535   CPU_ReadMem(4 bytes @ 0xE0001058)
T8AF4 004:288.993   Data:  00 00 00 00
T8AF4 004:289.010   Debug reg: DWT_FUNC[3]
T8AF4 004:289.019 - 0.498ms returns 1 (0x1)
T8AF4 004:289.078 JLINK_HasError()
T8AF4 004:289.088 JLINK_ReadReg(R0)
T8AF4 004:289.097 - 0.012ms returns 0x08014FFD
T8AF4 004:289.105 JLINK_ReadReg(R1)
T8AF4 004:289.113 - 0.010ms returns 0x20011150
T8AF4 004:289.120 JLINK_ReadReg(R2)
T8AF4 004:289.128 - 0.011ms returns 0x00000000
T8AF4 004:289.135 JLINK_ReadReg(R3)
T8AF4 004:289.142 - 0.010ms returns 0x0800C329
T8AF4 004:289.150 JLINK_ReadReg(R4)
T8AF4 004:289.157 - 0.009ms returns 0x08018FF0
T8AF4 004:289.164 JLINK_ReadReg(R5)
T8AF4 004:289.171 - 0.011ms returns 0x08018FF0
T8AF4 004:289.180 JLINK_ReadReg(R6)
T8AF4 004:289.187 - 0.011ms returns 0x00000000
T8AF4 004:289.195 JLINK_ReadReg(R7)
T8AF4 004:289.202 - 0.010ms returns 0x00000000
T8AF4 004:289.209 JLINK_ReadReg(R8)
T8AF4 004:289.215 - 0.010ms returns 0x00000000
T8AF4 004:289.224 JLINK_ReadReg(R9)
T8AF4 004:289.231 - 0.010ms returns 0x00000000
T8AF4 004:289.238 JLINK_ReadReg(R10)
T8AF4 004:289.245 - 0.011ms returns 0x00000000
T8AF4 004:289.253 JLINK_ReadReg(R11)
T8AF4 004:289.260 - 0.010ms returns 0x00000000
T8AF4 004:289.267 JLINK_ReadReg(R12)
T8AF4 004:289.274 - 0.010ms returns 0x00000000
T8AF4 004:289.282 JLINK_ReadReg(R13 (SP))
T8AF4 004:289.289 - 0.010ms returns 0x20011150
T8AF4 004:289.332 JLINK_ReadReg(R14)
T8AF4 004:289.344 - 0.015ms returns 0x080009E1
T8AF4 004:289.352 JLINK_ReadReg(R15 (PC))
T8AF4 004:289.359 - 0.010ms returns 0x08014FFC
T8AF4 004:289.366 JLINK_ReadReg(XPSR)
T8AF4 004:289.372 - 0.010ms returns 0x61000000
T8AF4 004:289.380 JLINK_ReadReg(MSP)
T8AF4 004:289.388 - 0.010ms returns 0x20011150
T8AF4 004:289.395 JLINK_ReadReg(PSP)
T8AF4 004:289.402 - 0.011ms returns 0x00000000
T8AF4 004:289.410 JLINK_ReadReg(CFBP)
T8AF4 004:289.417 - 0.010ms returns 0x00000000
T8AF4 004:289.424 JLINK_ReadReg(FPSCR)
T8AF4 004:292.945 - 3.531ms returns 0x00000000
T8AF4 004:292.961 JLINK_ReadReg(FPS0)
T8AF4 004:292.970 - 0.012ms returns 0x00000000
T8AF4 004:292.978 JLINK_ReadReg(FPS1)
T8AF4 004:292.985 - 0.011ms returns 0x00000000
T8AF4 004:292.993 JLINK_ReadReg(FPS2)
T8AF4 004:292.999 - 0.010ms returns 0x00000000
T8AF4 004:293.007 JLINK_ReadReg(FPS3)
T8AF4 004:293.014 - 0.009ms returns 0x00000000
T8AF4 004:293.021 JLINK_ReadReg(FPS4)
T8AF4 004:293.029 - 0.011ms returns 0x00000000
T8AF4 004:293.037 JLINK_ReadReg(FPS5)
T8AF4 004:293.044 - 0.010ms returns 0x00000000
T8AF4 004:293.051 JLINK_ReadReg(FPS6)
T8AF4 004:293.058 - 0.010ms returns 0x00000000
T8AF4 004:293.066 JLINK_ReadReg(FPS7)
T8AF4 004:293.073 - 0.010ms returns 0x00000000
T8AF4 004:293.080 JLINK_ReadReg(FPS8)
T8AF4 004:293.087 - 0.011ms returns 0x00000000
T8AF4 004:293.095 JLINK_ReadReg(FPS9)
T8AF4 004:293.102 - 0.010ms returns 0x00000000
T8AF4 004:293.109 JLINK_ReadReg(FPS10)
T8AF4 004:293.116 - 0.010ms returns 0x00000000
T8AF4 004:293.124 JLINK_ReadReg(FPS11)
T8AF4 004:293.131 - 0.010ms returns 0x00000000
T8AF4 004:293.138 JLINK_ReadReg(FPS12)
T8AF4 004:293.145 - 0.011ms returns 0x00000000
T8AF4 004:293.153 JLINK_ReadReg(FPS13)
T8AF4 004:293.160 - 0.011ms returns 0x00000000
T8AF4 004:293.179 JLINK_ReadReg(FPS14)
T8AF4 004:293.187 - 0.011ms returns 0x00000000
T8AF4 004:293.195 JLINK_ReadReg(FPS15)
T8AF4 004:293.201 - 0.010ms returns 0x00000000
T8AF4 004:293.209 JLINK_ReadReg(FPS16)
T8AF4 004:293.216 - 0.010ms returns 0x00000000
T8AF4 004:293.223 JLINK_ReadReg(FPS17)
T8AF4 004:293.231 - 0.010ms returns 0x00000000
T8AF4 004:293.238 JLINK_ReadReg(FPS18)
T8AF4 004:293.245 - 0.011ms returns 0x00000000
T8AF4 004:293.253 JLINK_ReadReg(FPS19)
T8AF4 004:293.259 - 0.010ms returns 0x00000000
T8AF4 004:293.267 JLINK_ReadReg(FPS20)
T8AF4 004:293.274 - 0.010ms returns 0x00000000
T8AF4 004:293.281 JLINK_ReadReg(FPS21)
T8AF4 004:293.289 - 0.011ms returns 0x00000000
T8AF4 004:293.296 JLINK_ReadReg(FPS22)
T8AF4 004:293.304 - 0.010ms returns 0x00000000
T8AF4 004:293.311 JLINK_ReadReg(FPS23)
T8AF4 004:293.317 - 0.010ms returns 0x00000000
T8AF4 004:293.325 JLINK_ReadReg(FPS24)
T8AF4 004:293.332 - 0.009ms returns 0x00000000
T8AF4 004:293.339 JLINK_ReadReg(FPS25)
T8AF4 004:293.346 - 0.011ms returns 0x00000000
T8AF4 004:293.354 JLINK_ReadReg(FPS26)
T8AF4 004:293.361 - 0.010ms returns 0x00000000
T8AF4 004:293.368 JLINK_ReadReg(FPS27)
T8AF4 004:293.374 - 0.009ms returns 0x00000000
T8AF4 004:293.382 JLINK_ReadReg(FPS28)
T8AF4 004:293.389 - 0.009ms returns 0x00000000
T8AF4 004:293.396 JLINK_ReadReg(FPS29)
T8AF4 004:293.403 - 0.011ms returns 0x00000000
T8AF4 004:293.411 JLINK_ReadReg(FPS30)
T8AF4 004:293.418 - 0.010ms returns 0x00000000
T8AF4 004:293.425 JLINK_ReadReg(FPS31)
T8AF4 004:293.431 - 0.009ms returns 0x00000000
T38C0 004:297.610 JLINK_ReadMemEx(0x2000AA14, 0x20 Bytes, Flags = 0x02000000)
T38C0 004:297.633   CPU_ReadMem(64 bytes @ 0x2000AA00)
T38C0 004:298.556    -- Updating C cache (64 bytes @ 0x2000AA00)
T38C0 004:298.573    -- Read from C cache (32 bytes @ 0x2000AA14)
T38C0 004:298.584   Data:  00 00 00 00 00 00 00 00 00 00 00 00 00 00 00 00 ...
T38C0 004:298.593 - 0.985ms returns 32 (0x20)
T38C0 004:298.607 JLINK_ReadMemEx(0x20000322, 0x2 Bytes, Flags = 0x02000000)
T38C0 004:298.619   CPU_ReadMem(64 bytes @ 0x20000300)
T38C0 004:299.547    -- Updating C cache (64 bytes @ 0x20000300)
T38C0 004:299.565    -- Read from C cache (2 bytes @ 0x20000322)
T38C0 004:299.604   Data:  00 00
T38C0 004:299.613 - 1.009ms returns 2 (0x2)
T38C0 004:301.421 JLINK_ReadMemEx(0x20000028, 0x1 Bytes, Flags = 0x02000000)
T38C0 004:301.439   CPU_ReadMem(64 bytes @ 0x20000000)
T38C0 004:302.306    -- Updating C cache (64 bytes @ 0x20000000)
T38C0 004:302.341    -- Read from C cache (1 bytes @ 0x20000028)
T38C0 004:302.351   Data:  00
T38C0 004:302.361 - 0.943ms returns 1 (0x1)
T38C0 004:302.523 JLINK_ReadMemEx(0x20000024, 0x1 Bytes, Flags = 0x02000000)
T38C0 004:302.538    -- Read from C cache (1 bytes @ 0x20000024)
T38C0 004:302.547   Data:  00
T38C0 004:302.556 - 0.037ms returns 1 (0x1)
T38C0 004:302.698 JLINK_ReadMemEx(0x20000025, 0x1 Bytes, Flags = 0x02000000)
T38C0 004:302.712    -- Read from C cache (1 bytes @ 0x20000025)
T38C0 004:302.721   Data:  00
T38C0 004:302.731 - 0.036ms returns 1 (0x1)
T38C0 004:302.869 JLINK_ReadMemEx(0x20000035, 0x1 Bytes, Flags = 0x02000000)
T38C0 004:302.883    -- Read from C cache (1 bytes @ 0x20000035)
T38C0 004:302.893   Data:  00
T38C0 004:302.902 - 0.036ms returns 1 (0x1)
T38C0 004:302.918 JLINK_ReadMemEx(0x2000A614, 0x20 Bytes, Flags = 0x02000000)
T38C0 004:302.930   CPU_ReadMem(64 bytes @ 0x2000A600)
T38C0 004:304.018    -- Updating C cache (64 bytes @ 0x2000A600)
T38C0 004:304.037    -- Read from C cache (32 bytes @ 0x2000A614)
T38C0 004:304.046   Data:  00 00 00 00 00 00 00 00 00 00 00 00 00 00 00 00 ...
T38C0 004:304.055 - 1.140ms returns 32 (0x20)
T38C0 004:304.081 JLINK_ReadMemEx(0x2000C050, 0x20 Bytes, Flags = 0x02000000)
T38C0 004:304.094   CPU_ReadMem(64 bytes @ 0x2000C040)
T38C0 004:305.001    -- Updating C cache (64 bytes @ 0x2000C040)
T38C0 004:305.019    -- Read from C cache (32 bytes @ 0x2000C050)
T38C0 004:305.029   Data:  00 00 00 00 00 00 00 00 00 00 00 00 00 00 00 00 ...
T38C0 004:305.038 - 0.960ms returns 32 (0x20)
T38C0 004:305.060 JLINK_ReadMemEx(0x2000C1F4, 0x20 Bytes, Flags = 0x02000000)
T38C0 004:305.073   CPU_ReadMem(128 bytes @ 0x2000C1C0)
T38C0 004:306.412    -- Updating C cache (128 bytes @ 0x2000C1C0)
T38C0 004:306.429    -- Read from C cache (32 bytes @ 0x2000C1F4)
T38C0 004:306.439   Data:  00 00 00 00 00 00 00 00 00 00 00 00 00 00 00 00 ...
T38C0 004:306.448 - 1.391ms returns 32 (0x20)
T38C0 004:307.131 JLINK_ReadMemEx(0x20000028, 0x1 Bytes, Flags = 0x02000000)
T38C0 004:307.147    -- Read from C cache (1 bytes @ 0x20000028)
T38C0 004:307.157   Data:  00
T38C0 004:307.166 - 0.038ms returns 1 (0x1)
T38C0 004:307.342 JLINK_ReadMemEx(0x20000024, 0x1 Bytes, Flags = 0x02000000)
T38C0 004:307.375    -- Read from C cache (1 bytes @ 0x20000024)
T38C0 004:307.384   Data:  00
T38C0 004:307.394 - 0.055ms returns 1 (0x1)
T38C0 004:307.574 JLINK_ReadMemEx(0x20000024, 0x1 Bytes, Flags = 0x02000000)
T38C0 004:307.588    -- Read from C cache (1 bytes @ 0x20000024)
T38C0 004:307.598   Data:  00
T38C0 004:307.607 - 0.036ms returns 1 (0x1)
T38C0 004:307.769 JLINK_ReadMemEx(0x20000025, 0x1 Bytes, Flags = 0x02000000)
T38C0 004:307.802    -- Read from C cache (1 bytes @ 0x20000025)
T38C0 004:307.812   Data:  00
T38C0 004:307.820 - 0.055ms returns 1 (0x1)
T38C0 004:307.955 JLINK_ReadMemEx(0x20000028, 0x1 Bytes, Flags = 0x02000000)
T38C0 004:307.968    -- Read from C cache (1 bytes @ 0x20000028)
T38C0 004:307.977   Data:  00
T38C0 004:307.987 - 0.036ms returns 1 (0x1)
T8AF4 005:608.221 JLINK_ReadMemEx(0x08014FFC, 0x2 Bytes, Flags = 0x02000000)
T8AF4 005:608.257   CPU_ReadMem(64 bytes @ 0x08014FC0)
T8AF4 005:609.226    -- Updating C cache (64 bytes @ 0x08014FC0)
T8AF4 005:609.245    -- Read from C cache (2 bytes @ 0x08014FFC)
T8AF4 005:609.256   Data:  8C B0
T8AF4 005:609.265 - 1.047ms returns 2 (0x2)
T8AF4 005:609.274 JLINK_HasError()
T8AF4 005:609.282 JLINK_SetBPEx(Addr = 0x08015124, Type = 0xFFFFFFF2)
T8AF4 005:609.293 - 0.014ms returns 0x00000005
T8AF4 005:609.301 JLINK_HasError()
T8AF4 005:609.308 JLINK_SetBPEx(Addr = 0x08015102, Type = 0xFFFFFFF2)
T8AF4 005:609.316 - 0.011ms returns 0x00000006
T8AF4 005:609.324 JLINK_HasError()
T8AF4 005:609.330 JLINK_SetBPEx(Addr = 0x080150D8, Type = 0xFFFFFFF2)
T8AF4 005:609.380 - 0.057ms returns 0x00000007
T8AF4 005:609.392 JLINK_HasError()
T8AF4 005:609.400 JLINK_HasError()
T8AF4 005:609.407 JLINK_Go()
T8AF4 005:609.924   CPU_WriteMem(4 bytes @ 0xE0002000)
T8AF4 005:610.539   CPU_WriteMem(4 bytes @ 0xE0002000)
T8AF4 005:611.217   CPU_WriteMem(4 bytes @ 0xE0002000)
T8AF4 005:611.694   CPU_ReadMem(4 bytes @ 0xE0001000)
T8AF4 005:612.170   CPU_WriteMem(4 bytes @ 0xE0002008)
T8AF4 005:612.191   CPU_WriteMem(4 bytes @ 0xE000200C)
T8AF4 005:612.202   CPU_WriteMem(4 bytes @ 0xE0002010)
T8AF4 005:612.213   CPU_WriteMem(4 bytes @ 0xE0002014)
T8AF4 005:614.281 - 4.884ms
T8AF4 005:714.635 JLINK_HasError()
T8AF4 005:714.665 JLINK_IsHalted()
T8AF4 005:715.185 - 0.529ms returns FALSE
T8AF4 005:815.453 JLINK_HasError()
T8AF4 005:815.471 JLINK_IsHalted()
T8AF4 005:816.013 - 0.551ms returns FALSE
T8AF4 005:917.163 JLINK_HasError()
T8AF4 005:917.187 JLINK_IsHalted()
T8AF4 005:919.802 - 2.625ms returns TRUE
T8AF4 005:919.818 JLINK_HasError()
T8AF4 005:919.826 JLINK_Halt()
T8AF4 005:919.832 - 0.010ms returns 0x00
T8AF4 005:919.840 JLINK_IsHalted()
T8AF4 005:919.846 - 0.009ms returns TRUE
T8AF4 005:919.854 JLINK_IsHalted()
T8AF4 005:919.860 - 0.009ms returns TRUE
T8AF4 005:919.867 JLINK_IsHalted()
T8AF4 005:919.874 - 0.010ms returns TRUE
T8AF4 005:919.881 JLINK_HasError()
T8AF4 005:919.889 JLINK_ReadReg(R15 (PC))
T8AF4 005:919.898 - 0.011ms returns 0x080150D8
T8AF4 005:919.905 JLINK_ReadReg(XPSR)
T8AF4 005:919.912 - 0.010ms returns 0x61000000
T8AF4 005:919.921 JLINK_HasError()
T8AF4 005:919.929 JLINK_ClrBPEx(BPHandle = 0x00000005)
T8AF4 005:919.937 - 0.010ms returns 0x00
T8AF4 005:919.944 JLINK_HasError()
T8AF4 005:919.951 JLINK_ClrBPEx(BPHandle = 0x00000006)
T8AF4 005:919.958 - 0.010ms returns 0x00
T8AF4 005:919.966 JLINK_HasError()
T8AF4 005:919.972 JLINK_ClrBPEx(BPHandle = 0x00000007)
T8AF4 005:919.979 - 0.010ms returns 0x00
T8AF4 005:919.987 JLINK_HasError()
T8AF4 005:919.994 JLINK_HasError()
T8AF4 005:920.001 JLINK_ReadMemU32(0xE000ED30, 0x1 Items)
T8AF4 005:920.016   CPU_ReadMem(4 bytes @ 0xE000ED30)
T8AF4 005:920.554   Data:  03 00 00 00
T8AF4 005:920.571 - 0.572ms returns 1 (0x1)
T8AF4 005:920.579 JLINK_ReadMemU32(0xE0001028, 0x1 Items)
T8AF4 005:920.590   CPU_ReadMem(4 bytes @ 0xE0001028)
T8AF4 005:921.166   Data:  00 00 00 00
T8AF4 005:921.183   Debug reg: DWT_FUNC[0]
T8AF4 005:921.192 - 0.616ms returns 1 (0x1)
T8AF4 005:921.200 JLINK_ReadMemU32(0xE0001038, 0x1 Items)
T8AF4 005:921.211   CPU_ReadMem(4 bytes @ 0xE0001038)
T8AF4 005:921.658   Data:  00 02 00 00
T8AF4 005:921.674   Debug reg: DWT_FUNC[1]
T8AF4 005:921.683 - 0.486ms returns 1 (0x1)
T8AF4 005:921.692 JLINK_ReadMemU32(0xE0001048, 0x1 Items)
T8AF4 005:921.703   CPU_ReadMem(4 bytes @ 0xE0001048)
T8AF4 005:922.115   Data:  00 00 00 00
T8AF4 005:922.131   Debug reg: DWT_FUNC[2]
T8AF4 005:922.139 - 0.451ms returns 1 (0x1)
T8AF4 005:922.149 JLINK_ReadMemU32(0xE0001058, 0x1 Items)
T8AF4 005:922.159   CPU_ReadMem(4 bytes @ 0xE0001058)
T8AF4 005:922.613   Data:  00 00 00 00
T8AF4 005:922.630   Debug reg: DWT_FUNC[3]
T8AF4 005:922.638 - 0.492ms returns 1 (0x1)
T8AF4 005:922.696 JLINK_HasError()
T8AF4 005:922.706 JLINK_ReadReg(R0)
T8AF4 005:922.715 - 0.012ms returns 0x48001000
T8AF4 005:922.723 JLINK_ReadReg(R1)
T8AF4 005:922.729 - 0.009ms returns 0x00000000
T8AF4 005:922.737 JLINK_ReadReg(R2)
T8AF4 005:922.744 - 0.011ms returns 0x48001000
T8AF4 005:922.752 JLINK_ReadReg(R3)
T8AF4 005:922.759 - 0.010ms returns 0x00002000
T8AF4 005:922.766 JLINK_ReadReg(R4)
T8AF4 005:922.773 - 0.010ms returns 0x00000000
T8AF4 005:922.781 JLINK_ReadReg(R5)
T8AF4 005:922.787 - 0.009ms returns 0x00000001
T8AF4 005:922.794 JLINK_ReadReg(R6)
T8AF4 005:922.802 - 0.010ms returns 0x80000001
T8AF4 005:922.809 JLINK_ReadReg(R7)
T8AF4 005:922.816 - 0.010ms returns 0x00000000
T8AF4 005:922.823 JLINK_ReadReg(R8)
T8AF4 005:922.830 - 0.010ms returns 0x00000000
T8AF4 005:922.838 JLINK_ReadReg(R9)
T8AF4 005:922.844 - 0.009ms returns 0x00000000
T8AF4 005:922.851 JLINK_ReadReg(R10)
T8AF4 005:922.902 - 0.054ms returns 0x00000000
T8AF4 005:922.910 JLINK_ReadReg(R11)
T8AF4 005:922.917 - 0.010ms returns 0x00000000
T8AF4 005:922.925 JLINK_ReadReg(R12)
T8AF4 005:922.931 - 0.010ms returns 0x00000000
T8AF4 005:922.939 JLINK_ReadReg(R13 (SP))
T8AF4 005:922.946 - 0.009ms returns 0x20011120
T8AF4 005:922.953 JLINK_ReadReg(R14)
T8AF4 005:922.960 - 0.010ms returns 0x080150D9
T8AF4 005:922.967 JLINK_ReadReg(R15 (PC))
T8AF4 005:922.975 - 0.010ms returns 0x080150D8
T8AF4 005:922.981 JLINK_ReadReg(XPSR)
T8AF4 005:922.988 - 0.010ms returns 0x61000000
T8AF4 005:922.996 JLINK_ReadReg(MSP)
T8AF4 005:923.004 - 0.011ms returns 0x20011120
T8AF4 005:923.012 JLINK_ReadReg(PSP)
T8AF4 005:923.018 - 0.009ms returns 0x00000000
T8AF4 005:923.025 JLINK_ReadReg(CFBP)
T8AF4 005:923.032 - 0.047ms returns 0x04000000
T8AF4 005:923.077 JLINK_ReadReg(FPSCR)
T8AF4 005:926.702 - 3.634ms returns 0x00000000
T8AF4 005:926.717 JLINK_ReadReg(FPS0)
T8AF4 005:926.726 - 0.012ms returns 0x00000000
T8AF4 005:926.734 JLINK_ReadReg(FPS1)
T8AF4 005:926.741 - 0.011ms returns 0x00000000
T8AF4 005:926.749 JLINK_ReadReg(FPS2)
T8AF4 005:926.755 - 0.009ms returns 0x00000000
T8AF4 005:926.763 JLINK_ReadReg(FPS3)
T8AF4 005:926.770 - 0.009ms returns 0x00000000
T8AF4 005:926.777 JLINK_ReadReg(FPS4)
T8AF4 005:926.784 - 0.010ms returns 0x00000000
T8AF4 005:926.792 JLINK_ReadReg(FPS5)
T8AF4 005:926.799 - 0.010ms returns 0x00000000
T8AF4 005:926.805 JLINK_ReadReg(FPS6)
T8AF4 005:926.812 - 0.009ms returns 0x00000000
T8AF4 005:926.819 JLINK_ReadReg(FPS7)
T8AF4 005:926.826 - 0.009ms returns 0x00000000
T8AF4 005:926.833 JLINK_ReadReg(FPS8)
T8AF4 005:926.841 - 0.010ms returns 0x00000000
T8AF4 005:926.848 JLINK_ReadReg(FPS9)
T8AF4 005:926.855 - 0.010ms returns 0x00000000
T8AF4 005:926.862 JLINK_ReadReg(FPS10)
T8AF4 005:926.868 - 0.009ms returns 0x00000000
T8AF4 005:926.876 JLINK_ReadReg(FPS11)
T8AF4 005:926.883 - 0.010ms returns 0x00000000
T8AF4 005:926.890 JLINK_ReadReg(FPS12)
T8AF4 005:926.897 - 0.010ms returns 0x00000000
T8AF4 005:926.904 JLINK_ReadReg(FPS13)
T8AF4 005:926.912 - 0.010ms returns 0x00000000
T8AF4 005:926.919 JLINK_ReadReg(FPS14)
T8AF4 005:926.925 - 0.009ms returns 0x00000000
T8AF4 005:926.933 JLINK_ReadReg(FPS15)
T8AF4 005:926.940 - 0.010ms returns 0x00000000
T8AF4 005:926.946 JLINK_ReadReg(FPS16)
T8AF4 005:926.954 - 0.010ms returns 0x00000000
T8AF4 005:926.961 JLINK_ReadReg(FPS17)
T8AF4 005:926.968 - 0.010ms returns 0x00000000
T8AF4 005:926.975 JLINK_ReadReg(FPS18)
T8AF4 005:926.981 - 0.009ms returns 0x00000000
T8AF4 005:926.989 JLINK_ReadReg(FPS19)
T8AF4 005:926.997 - 0.011ms returns 0x00000000
T8AF4 005:927.004 JLINK_ReadReg(FPS20)
T8AF4 005:927.011 - 0.009ms returns 0x00000000
T8AF4 005:927.018 JLINK_ReadReg(FPS21)
T8AF4 005:927.025 - 0.010ms returns 0x00000000
T8AF4 005:927.033 JLINK_ReadReg(FPS22)
T8AF4 005:927.039 - 0.010ms returns 0x00000000
T8AF4 005:927.047 JLINK_ReadReg(FPS23)
T8AF4 005:927.053 - 0.009ms returns 0x00000000
T8AF4 005:927.060 JLINK_ReadReg(FPS24)
T8AF4 005:927.067 - 0.010ms returns 0x00000000
T8AF4 005:927.075 JLINK_ReadReg(FPS25)
T8AF4 005:927.082 - 0.010ms returns 0x00000000
T8AF4 005:927.089 JLINK_ReadReg(FPS26)
T8AF4 005:927.095 - 0.010ms returns 0x00000000
T8AF4 005:927.103 JLINK_ReadReg(FPS27)
T8AF4 005:927.110 - 0.009ms returns 0x00000000
T8AF4 005:927.117 JLINK_ReadReg(FPS28)
T8AF4 005:927.123 - 0.009ms returns 0x00000000
T8AF4 005:927.130 JLINK_ReadReg(FPS29)
T8AF4 005:927.137 - 0.010ms returns 0x00000000
T8AF4 005:927.145 JLINK_ReadReg(FPS30)
T8AF4 005:927.152 - 0.010ms returns 0x00000000
T8AF4 005:927.159 JLINK_ReadReg(FPS31)
T8AF4 005:927.165 - 0.009ms returns 0x00000000
T38C0 005:927.518 JLINK_ReadMemEx(0x20011138, 0x4 Bytes, Flags = 0x02000000)
T38C0 005:927.540   CPU_ReadMem(64 bytes @ 0x20011100)
T38C0 005:928.396    -- Updating C cache (64 bytes @ 0x20011100)
T38C0 005:928.442    -- Read from C cache (4 bytes @ 0x20011138)
T38C0 005:928.499   Data:  00 04 00 00
T38C0 005:928.535 - 1.021ms returns 4 (0x4)
T38C0 005:932.562 JLINK_ReadMemEx(0x2000AA14, 0x20 Bytes, Flags = 0x02000000)
T38C0 005:932.584   CPU_ReadMem(64 bytes @ 0x2000AA00)
T38C0 005:933.564    -- Updating C cache (64 bytes @ 0x2000AA00)
T38C0 005:933.582    -- Read from C cache (32 bytes @ 0x2000AA14)
T38C0 005:933.591   Data:  00 00 00 00 00 00 00 00 00 00 00 00 00 00 00 00 ...
T38C0 005:933.600 - 1.041ms returns 32 (0x20)
T38C0 005:933.614 JLINK_ReadMemEx(0x20000322, 0x2 Bytes, Flags = 0x02000000)
T38C0 005:933.626   CPU_ReadMem(64 bytes @ 0x20000300)
T38C0 005:934.569    -- Updating C cache (64 bytes @ 0x20000300)
T38C0 005:934.586    -- Read from C cache (2 bytes @ 0x20000322)
T38C0 005:934.596   Data:  00 00
T38C0 005:934.605 - 0.994ms returns 2 (0x2)
T38C0 005:935.954 JLINK_ReadMemEx(0x20000028, 0x1 Bytes, Flags = 0x02000000)
T38C0 005:935.973   CPU_ReadMem(64 bytes @ 0x20000000)
T38C0 005:937.028    -- Updating C cache (64 bytes @ 0x20000000)
T38C0 005:937.048    -- Read from C cache (1 bytes @ 0x20000028)
T38C0 005:937.058   Data:  00
T38C0 005:937.067 - 1.116ms returns 1 (0x1)
T38C0 005:937.102 JLINK_ReadMemEx(0x20000024, 0x1 Bytes, Flags = 0x02000000)
T38C0 005:937.113    -- Read from C cache (1 bytes @ 0x20000024)
T38C0 005:937.122   Data:  00
T38C0 005:937.132 - 0.032ms returns 1 (0x1)
T38C0 005:937.142 JLINK_ReadMemEx(0x20000025, 0x1 Bytes, Flags = 0x02000000)
T38C0 005:937.151    -- Read from C cache (1 bytes @ 0x20000025)
T38C0 005:937.160   Data:  00
T38C0 005:937.169 - 0.030ms returns 1 (0x1)
T38C0 005:937.179 JLINK_ReadMemEx(0x20000035, 0x1 Bytes, Flags = 0x02000000)
T38C0 005:937.187    -- Read from C cache (1 bytes @ 0x20000035)
T38C0 005:937.196   Data:  00
T38C0 005:937.206 - 0.029ms returns 1 (0x1)
T38C0 005:937.219 JLINK_ReadMemEx(0x2000A614, 0x20 Bytes, Flags = 0x02000000)
